time	V(n001)	V(n002)
0.000000000000000e+000	1.000000e+000	3.151588e-001
6.013839307083153e-006	1.060573e+000	3.716411e-001
1.202767861416631e-005	1.120414e+000	4.277245e-001
1.804151792124946e-005	1.179524e+000	4.834092e-001
2.405535722833261e-005	1.237901e+000	5.386951e-001
3.006919653541576e-005	1.295548e+000	5.935822e-001
3.608303584249892e-005	1.352462e+000	6.480706e-001
4.209687514958205e-005	1.408645e+000	7.021602e-001
5.186250014958206e-005	1.495686e+000	7.860441e-001
6.162812514958205e-005	1.578005e+000	8.656459e-001
7.139375014958205e-005	1.654815e+000	9.401181e-001
8.115937514958204e-005	1.725385e+000	1.008683e+000
9.092500014958204e-005	1.789043e+000	1.070634e+000
1.006906251495820e-004	1.845182e+000	1.125339e+000
1.104562501495820e-004	1.893268e+000	1.172244e+000
1.202218751495820e-004	1.932841e+000	1.210878e+000
1.299875001495820e-004	1.963525e+000	1.240851e+000
1.397531251495820e-004	1.985027e+000	1.261864e+000
1.495187501495820e-004	1.997143e+000	1.273707e+000
1.592843751495820e-004	1.999757e+000	1.276263e+000
1.690500001495821e-004	1.992844e+000	1.269505e+000
1.788156251495821e-004	1.976470e+000	1.253501e+000
1.885812501495821e-004	1.950791e+000	1.228410e+000
1.983468751495821e-004	1.916052e+000	1.194485e+000
2.081125001495821e-004	1.872584e+000	1.152063e+000
2.178781251495821e-004	1.820801e+000	1.101573e+000
2.276437501495821e-004	1.761196e+000	1.043523e+000
2.374093751495821e-004	1.694337e+000	9.785029e-001
2.471750001495821e-004	1.620863e+000	9.071794e-001
2.569406251495821e-004	1.541471e+000	8.302913e-001
2.667062501495821e-004	1.456921e+000	7.486484e-001
2.862375001495821e-004	1.275604e+000	5.746945e-001
3.155343751495822e-004	9.862493e-001	3.030031e-001
3.253000001495822e-004	8.888230e-001	2.151819e-001
3.350656251495822e-004	7.924560e-001	1.330343e-001
3.448312501495822e-004	6.980668e-001	6.384184e-002
3.545968751495822e-004	6.065547e-001	1.959551e-002
3.643625001495822e-004	5.187919e-001	2.826774e-003
3.741281251495822e-004	4.356146e-001	1.364847e-004
3.838937501495822e-004	3.578154e-001	5.677075e-006
3.936593751495822e-004	2.861356e-001	2.880712e-007
4.034250001495822e-004	2.212584e-001	1.881400e-008
4.131906251495822e-004	1.638020e-001	1.716212e-009
4.229562501495823e-004	1.143138e-001	2.953254e-010
4.327218751495823e-004	7.326552e-002	1.037306e-010
4.424875001495823e-004	4.104820e-002	4.920444e-011
4.522531251495823e-004	1.796891e-002	2.170517e-011
4.620187501495823e-004	4.247546e-003	6.891461e-012
4.717843751495823e-004	1.487723e-005	2.441000e-012
4.815500001495823e-004	5.311233e-003	8.013853e-012
4.913156251495823e-004	2.008614e-002	2.405047e-011
5.010812501495823e-004	4.419882e-002	5.335198e-011
5.108468751495823e-004	7.741947e-002	1.135520e-010
5.206125001495823e-004	1.194316e-001	3.436676e-010
5.303781251495823e-004	1.698347e-001	2.163781e-009
5.401437501495823e-004	2.281487e-001	2.510433e-008
5.499093751495823e-004	2.938177e-001	3.971862e-007
5.596750001495823e-004	3.662161e-001	8.030631e-006
5.694406251495823e-004	4.446539e-001	1.960072e-004
5.792062501495823e-004	5.283837e-001	3.725427e-003
5.889718751495823e-004	6.166076e-001	2.305406e-002
5.987375001495824e-004	7.084849e-001	7.052995e-002
6.085031251495824e-004	8.031402e-001	1.417873e-001
6.182687501495824e-004	8.996713e-001	2.247742e-001
6.280343751495824e-004	9.971585e-001	3.129091e-001
6.573312501495824e-004	1.286074e+000	5.846759e-001
6.768625001495824e-004	1.466597e+000	7.579748e-001
6.866281251495824e-004	1.550611e+000	8.391302e-001
6.963937501495824e-004	1.629378e+000	9.154363e-001
7.061593751495825e-004	1.702147e+000	9.860914e-001
7.159250001495825e-004	1.768226e+000	1.050365e+000
7.256906251495825e-004	1.826983e+000	1.107598e+000
7.354562501495825e-004	1.877861e+000	1.157211e+000
7.452218751495825e-004	1.920373e+000	1.198703e+000
7.549875001495825e-004	1.954115e+000	1.231657e+000
7.647531251495825e-004	1.978765e+000	1.255743e+000
7.745187501495825e-004	1.994088e+000	1.270720e+000
7.842843751495825e-004	1.999938e+000	1.276440e+000
7.940500001495825e-004	1.996260e+000	1.272843e+000
8.038156251495825e-004	1.983088e+000	1.259968e+000
8.135812501495825e-004	1.960548e+000	1.237942e+000
8.233468751495826e-004	1.928855e+000	1.206985e+000
8.331125001495826e-004	1.888310e+000	1.167407e+000
8.428781251495826e-004	1.839301e+000	1.119606e+000
8.526437501495826e-004	1.782294e+000	1.064062e+000
8.624093751495826e-004	1.717833e+000	1.001340e+000
8.721750001495826e-004	1.646531e+000	9.320791e-001
8.819406251495826e-004	1.569068e+000	8.569946e-001
8.917062501495826e-004	1.486182e+000	7.768723e-001
9.112375001495826e-004	1.307346e+000	6.050115e-001
9.405343751495827e-004	1.019433e+000	3.335345e-001
9.503000001495827e-004	9.218577e-001	2.446032e-001
9.600656251495827e-004	8.250270e-001	1.600253e-001
9.698312501495827e-004	7.298638e-001	8.512479e-002
9.795968751495827e-004	6.372746e-001	3.131555e-002
9.893625001495827e-004	5.481420e-001	6.190837e-003
9.991281251495827e-004	4.633151e-001	4.077466e-004
1.008893750149583e-003	3.836025e-001	1.643045e-005
1.018659375149583e-003	3.097636e-001	7.727287e-007
1.028425000149583e-003	2.425020e-001	4.599230e-008
1.038190625149583e-003	1.824588e-001	3.649466e-009
1.047956250149583e-003	1.302061e-001	4.919977e-010
1.057721875149583e-003	8.624174e-002	1.395390e-010
1.067487500149583e-003	5.098478e-002	6.301500e-011
1.077253125149583e-003	2.477115e-002	2.936867e-011
1.087018750149583e-003	7.850629e-003	1.071719e-011
1.096784375149583e-003	3.844667e-004	2.828189e-012
1.106550000149583e-003	2.443807e-003	4.987862e-012
1.116315625149583e-003	1.400903e-002	1.734795e-011
1.126081250149583e-003	3.496992e-002	4.145357e-011
1.135846875149583e-003	6.512674e-002	8.653851e-011
1.145612500149583e-003	1.041921e-001	2.195967e-010
1.155378125149583e-003	1.517938e-001	1.066568e-009
1.165143750149583e-003	2.074782e-001	1.053487e-008
1.174909375149583e-003	2.707147e-001	1.509778e-007
1.184675000149583e-003	3.409006e-001	2.819132e-006
1.194440625149583e-003	4.173672e-001	6.534236e-005
1.204206250149583e-003	4.993858e-001	1.523060e-003
1.213971875149583e-003	5.861748e-001	1.370315e-002
1.223737500149583e-003	6.769073e-001	5.120923e-002
1.233503125149583e-003	7.707186e-001	1.156739e-001
1.243268750149583e-003	8.667147e-001	1.957946e-001
1.253034375149583e-003	9.639809e-001	2.826722e-001
1.282331250149583e-003	1.254124e+000	5.542005e-001
1.301862500149583e-003	1.436994e+000	7.294456e-001
1.311628125149583e-003	1.522611e+000	8.120539e-001
1.321393750149583e-003	1.603248e+000	8.901013e-001
1.331159375149583e-003	1.678136e+000	9.627623e-001
1.340925000149583e-003	1.746562e+000	1.029282e+000
1.350690625149583e-003	1.807874e+000	1.088977e+000
1.360456250149583e-003	1.861488e+000	1.141239e+000
1.370221875149583e-003	1.906892e+000	1.185542e+000
1.379987500149583e-003	1.943654e+000	1.221439e+000
1.389753125149583e-003	1.971424e+000	1.248570e+000
1.399518750149583e-003	1.989938e+000	1.266664e+000
1.409284375149583e-003	1.999018e+000	1.275540e+000
1.419050000149583e-003	1.998578e+000	1.275110e+000
1.428815625149583e-003	1.988623e+000	1.265378e+000
1.438581250149583e-003	1.969247e+000	1.246442e+000
1.448346875149583e-003	1.940634e+000	1.218489e+000
1.458112500149583e-003	1.903059e+000	1.181801e+000
1.467878125149583e-003	1.856878e+000	1.136744e+000
1.477643750149583e-003	1.802531e+000	1.083772e+000
1.487409375149583e-003	1.740537e+000	1.023421e+000
1.497175000149583e-003	1.671487e+000	9.563057e-001
1.506940625149583e-003	1.596037e+000	8.831155e-001
1.516706250149583e-003	1.514908e+000	8.046126e-001
1.536237500149583e-003	1.338750e+000	6.350689e-001
1.575300000149583e-003	9.549785e-001	2.744721e-001
1.585065625149583e-003	8.577908e-001	1.880045e-001
1.594831250149583e-003	7.619582e-001	1.088676e-001
1.604596875149583e-003	6.683939e-001	4.651188e-002
1.614362500149583e-003	5.779896e-001	1.172909e-002
1.624128125149583e-003	4.916067e-001	1.164563e-003
1.633893750149583e-003	4.100683e-001	4.854871e-005
1.643659375149583e-003	3.341515e-001	2.129536e-006
1.653425000149583e-003	2.645797e-001	1.163651e-007
1.663190625149583e-003	2.020158e-001	8.217854e-009
1.672956250149583e-003	1.470561e-001	8.992980e-010
1.682721875149583e-003	1.002242e-001	1.981337e-010
1.692487500149583e-003	6.196639e-002	8.084901e-011
1.702253125149583e-003	3.264728e-002	3.864291e-011
1.712018750149583e-003	1.254623e-002	1.576583e-011
1.721784375149583e-003	1.854796e-003	4.370487e-012
1.731550000149583e-003	6.748528e-004	3.131510e-012
1.741315625149583e-003	9.017645e-003	1.196002e-011
1.751081250149583e-003	2.680367e-002	3.169720e-011
1.760846875149583e-003	5.386345e-002	6.729522e-011
1.770612500149583e-003	8.993912e-002	1.520069e-010
1.780378125149583e-003	1.346869e-001	5.702435e-010
1.790143750149583e-003	1.876804e-001	4.482180e-009
1.799909375149583e-003	2.484147e-001	5.890606e-008
1.809675000149583e-003	3.163109e-001	1.014967e-006
1.819440625149583e-003	3.907221e-001	2.200882e-005
1.829206250149583e-003	4.709392e-001	5.459302e-004
1.838971875149584e-003	5.561978e-001	7.455383e-003
1.848737500149584e-003	6.456855e-001	3.511084e-002
1.858503125149584e-003	7.385495e-001	9.136141e-002
1.868268750149584e-003	8.339049e-001	1.675593e-001
1.878034375149584e-003	9.308431e-001	2.526717e-001
1.897565625149584e-003	1.125766e+000	4.326269e-001
1.917096875149584e-003	1.315907e+000	6.131905e-001
1.936628125149584e-003	1.494036e+000	7.844504e-001
1.946393750149584e-003	1.576453e+000	8.641437e-001
1.956159375149584e-003	1.653378e+000	9.387234e-001
1.965925000149583e-003	1.724076e+000	1.007410e+000
1.975690625149583e-003	1.787875e+000	1.069496e+000
1.985456250149583e-003	1.844165e+000	1.124348e+000
1.995221875149583e-003	1.892412e+000	1.171410e+000
2.004987500149583e-003	1.932155e+000	1.210207e+000
2.014753125149582e-003	1.963015e+000	1.240352e+000
2.024518750149582e-003	1.984698e+000	1.261542e+000
2.034284375149582e-003	1.996998e+000	1.273565e+000
2.044050000149582e-003	1.999797e+000	1.276302e+000
2.053815625149582e-003	1.993069e+000	1.269725e+000
2.063581250149581e-003	1.976878e+000	1.253899e+000
2.073346875149581e-003	1.951378e+000	1.228984e+000
2.083112500149581e-003	1.916813e+000	1.195227e+000
2.092878125149581e-003	1.873510e+000	1.152967e+000
2.102643750149580e-003	1.821884e+000	1.102629e+000
2.112409375149580e-003	1.762426e+000	1.044721e+000
2.122175000149580e-003	1.695703e+000	9.798301e-001
2.131940625149580e-003	1.622351e+000	9.086224e-001
2.141706250149580e-003	1.543068e+000	8.318350e-001
2.151471875149579e-003	1.458609e+000	7.502765e-001
2.171003125149579e-003	1.277429e+000	5.764362e-001
2.200300000149578e-003	9.881489e-001	3.047441e-001
2.210065625149578e-003	8.907111e-001	2.168511e-001
2.219831250149578e-003	7.943147e-001	1.345455e-001
2.229596875149578e-003	6.998783e-001	6.498288e-002
2.239362500149578e-003	6.083019e-001	2.016970e-002
2.249128125149577e-003	5.204580e-001	2.969847e-003
2.258893750149577e-003	4.371838e-001	1.453339e-004
2.268659375149577e-003	3.592727e-001	6.029378e-006
2.278425000149577e-003	2.874672e-001	3.045756e-007
2.288190625149577e-003	2.224516e-001	1.978195e-008
2.297956250149576e-003	1.648453e-001	1.788769e-009
2.307721875149576e-003	1.151974e-001	3.033208e-010
2.317487500149576e-003	7.398092e-002	1.053933e-010
2.327253125149576e-003	4.158862e-002	4.991398e-011
2.337018750149575e-003	1.832918e-002	2.210461e-011
2.346784375149575e-003	4.424247e-003	7.078220e-012
2.356550000149575e-003	6.319360e-006	2.402672e-012
2.366198151134768e-003	4.999490e-003	7.654949e-012
2.375963776134768e-003	1.947767e-002	2.337227e-011
2.385729401134768e-003	4.329941e-002	5.214119e-011
2.395495026134768e-003	7.623772e-002	1.105827e-010
2.405260651134767e-003	1.179787e-001	3.284591e-010
2.415026276134767e-003	1.681246e-001	2.020391e-009
2.424791901134767e-003	2.261976e-001	2.312574e-008
2.434557526134767e-003	2.916443e-001	3.626942e-007
2.444323151134767e-003	3.638410e-001	7.280979e-006
2.454088776134766e-003	4.420998e-001	1.770459e-004
2.463854401134766e-003	5.256749e-001	3.453121e-003
2.473620026134766e-003	6.137699e-001	2.204113e-002
2.483385651134766e-003	7.055454e-001	6.861396e-002
2.493151276134766e-003	8.001269e-001	1.393101e-001
2.502916901134765e-003	8.966129e-001	2.220570e-001
2.512682526134765e-003	9.940841e-001	3.100801e-001
2.541979401134765e-003	1.283127e+000	5.818621e-001
2.561510651134764e-003	1.463876e+000	7.553505e-001
2.571276276134764e-003	1.548042e+000	8.366448e-001
2.581041901134764e-003	1.626986e+000	9.131162e-001
2.590807526134764e-003	1.699955e+000	9.839607e-001
2.600573151134763e-003	1.766254e+000	1.048445e+000
2.610338776134763e-003	1.825251e+000	1.105910e+000
2.620104401134763e-003	1.876384e+000	1.155771e+000
2.629870026134763e-003	1.919166e+000	1.197525e+000
2.639635651134762e-003	1.953190e+000	1.230753e+000
2.649401276134762e-003	1.978130e+000	1.255123e+000
2.659166901134762e-003	1.993749e+000	1.270389e+000
2.668932526134762e-003	1.999899e+000	1.276401e+000
2.678698151134762e-003	1.996521e+000	1.273099e+000
2.688463776134761e-003	1.983646e+000	1.260514e+000
2.698229401134761e-003	1.961398e+000	1.238773e+000
2.707995026134761e-003	1.929989e+000	1.208093e+000
2.717760651134761e-003	1.889718e+000	1.168781e+000
2.727526276134761e-003	1.840969e+000	1.121231e+000
2.737291901134760e-003	1.784206e+000	1.065923e+000
2.747057526134760e-003	1.719970e+000	1.003418e+000
2.756823151134760e-003	1.648873e+000	9.343523e-001
2.766588776134760e-003	1.571593e+000	8.594395e-001
2.776354401134760e-003	1.488866e+000	7.794631e-001
2.795885651134759e-003	1.310270e+000	6.078077e-001
2.825182526134759e-003	1.022507e+000	3.363743e-001
2.834948151134758e-003	9.249231e-001	2.473149e-001
2.844713776134758e-003	8.280548e-001	1.625031e-001
2.854479401134758e-003	7.328252e-001	8.719181e-002
2.864245026134758e-003	6.401414e-001	3.258134e-002
2.874010651134757e-003	5.508868e-001	6.603878e-003
2.883776276134757e-003	4.659118e-001	4.506246e-004
2.893541901134757e-003	3.860263e-001	1.815070e-005
2.903307526134757e-003	3.119914e-001	8.478983e-007
2.913073151134757e-003	2.445127e-001	5.005301e-008
2.922838776134756e-003	1.842331e-001	3.925795e-009
2.932604401134756e-003	1.317271e-001	5.182751e-010
2.942370026134756e-003	8.749507e-002	1.437695e-010
2.952135651134756e-003	5.195842e-002	6.446960e-011
2.961901276134756e-003	2.545581e-002	3.015590e-011
2.971666901134755e-003	8.239799e-003	1.113275e-011
2.981432526134755e-003	4.744349e-004	2.922429e-012
2.991198151134755e-003	2.233716e-003	4.766990e-012
3.000963776134755e-003	1.350088e-002	1.679508e-011
3.010729401134755e-003	3.416856e-002	4.046877e-011
3.020495026134754e-003	6.403980e-002	8.449570e-011
3.030260651134754e-003	1.028300e-001	2.115833e-010
3.040026276134754e-003	1.501694e-001	1.002815e-009
3.049791901134754e-003	2.056070e-001	9.740918e-009
3.059557526134754e-003	2.686146e-001	1.382467e-007
3.069323151134753e-003	3.385916e-001	2.561784e-006
3.079088776134753e-003	4.148713e-001	5.903836e-005
3.088854401134753e-003	4.967268e-001	1.391296e-003
3.098620026134753e-003	5.833780e-001	1.300667e-002
3.108385651134752e-003	6.739993e-001	4.957928e-002
3.118151276134752e-003	7.677272e-001	1.133333e-001
3.127916901134752e-003	8.636684e-001	1.931368e-001
3.137682526134752e-003	9.609087e-001	2.798747e-001
3.166979401134751e-003	1.251149e+000	5.513670e-001
3.186510651134751e-003	1.434227e+000	7.267805e-001
3.196276276134751e-003	1.519987e+000	8.095183e-001
3.206041901134750e-003	1.600793e+000	8.877222e-001
3.215807526134750e-003	1.675873e+000	9.605647e-001
3.225573151134750e-003	1.744513e+000	1.027288e+000
3.235338776134750e-003	1.806058e+000	1.087208e+000
3.245104401134750e-003	1.859922e+000	1.139713e+000
3.254870026134749e-003	1.905592e+000	1.184273e+000
3.264635651134749e-003	1.942632e+000	1.220441e+000
3.274401276134749e-003	1.970690e+000	1.247852e+000
3.284166901134749e-003	1.989498e+000	1.266234e+000
3.293932526134749e-003	1.998877e+000	1.275402e+000
3.303698151134748e-003	1.998737e+000	1.275266e+000
3.313463776134748e-003	1.989081e+000	1.265826e+000
3.323229401134748e-003	1.969999e+000	1.247177e+000
3.332995026134748e-003	1.941674e+000	1.219504e+000
3.342760651134747e-003	1.904375e+000	1.183085e+000
3.352526276134747e-003	1.858458e+000	1.138286e+000
3.362291901134747e-003	1.804362e+000	1.085555e+000
3.372057526134747e-003	1.742600e+000	1.025428e+000
3.381823151134747e-003	1.673762e+000	9.585150e-001
3.391588776134746e-003	1.598503e+000	8.855048e-001
3.401354401134746e-003	1.517541e+000	8.071569e-001
3.420885651134746e-003	1.341641e+000	6.378389e-001
3.450182526134745e-003	1.055665e+000	3.671207e-001
3.459948151134745e-003	9.580500e-001	2.772628e-001
3.469713776134745e-003	8.608346e-001	1.906472e-001
3.479479401134745e-003	7.649453e-001	1.111763e-001
3.489245026134744e-003	6.712959e-001	4.809000e-002
3.499010651134744e-003	5.807788e-001	1.237733e-002
3.508776276134744e-003	4.942565e-001	1.277588e-003
3.518541901134744e-003	4.125535e-001	5.372223e-005
3.528307526134744e-003	3.364484e-001	2.343329e-006
3.538073151134743e-003	2.666664e-001	1.270210e-007
3.547838776134743e-003	2.038725e-001	8.881728e-009
3.557604401134743e-003	1.486650e-001	9.552418e-010
3.567370026134743e-003	1.015700e-001	2.053955e-010
3.577135651134742e-003	6.303624e-002	8.278365e-011
3.586901276134742e-003	3.343101e-002	3.959523e-011
3.596666901134742e-003	1.303637e-002	1.629749e-011
3.606432526134742e-003	2.046678e-003	4.572126e-012
3.616198151134742e-003	5.666461e-004	3.018206e-012
3.625963776134741e-003	8.610381e-003	1.152431e-011
3.635729401134741e-003	2.610123e-002	3.088366e-011
3.645495026134741e-003	5.287253e-002	6.577564e-011
3.655260651134741e-003	8.866916e-002	1.474092e-010
3.665026276134741e-003	1.331500e-001	5.405598e-010
3.674791901134740e-003	1.858912e-001	4.163067e-009
3.684557526134740e-003	2.463902e-001	5.409646e-008
3.694323151134740e-003	3.140705e-001	9.245667e-007
3.704088776134740e-003	3.882871e-001	1.991616e-005
3.713854401134740e-003	4.683328e-001	4.943897e-004
3.723620026134739e-003	5.534449e-001	7.005285e-003
3.733385651134739e-003	6.428122e-001	3.378745e-002
3.743151276134739e-003	7.355832e-001	8.921403e-002
3.752916901134739e-003	8.308740e-001	1.649850e-001
3.762682526134739e-003	9.277763e-001	2.499117e-001
3.772448151134738e-003	1.025367e+000	3.389492e-001
3.801745026134738e-003	1.312989e+000	6.103985e-001
3.821276276134737e-003	1.491360e+000	7.818676e-001
3.831041901134737e-003	1.573938e+000	8.617085e-001
3.840807526134737e-003	1.651047e+000	9.364614e-001
3.850573151134737e-003	1.721952e+000	1.005345e+000
3.860338776134736e-003	1.785978e+000	1.067649e+000
3.870104401134736e-003	1.842513e+000	1.122737e+000
3.879870026134736e-003	1.891021e+000	1.170052e+000
3.889635651134736e-003	1.931037e+000	1.209116e+000
3.899401276134736e-003	1.962182e+000	1.239538e+000
3.909166901134736e-003	1.984157e+000	1.261014e+000
3.918932526134736e-003	1.996755e+000	1.273328e+000
3.928698151134735e-003	1.999854e+000	1.276358e+000
3.938463776134735e-003	1.993426e+000	1.270073e+000
3.948229401134735e-003	1.977531e+000	1.254537e+000
3.957995026134735e-003	1.952321e+000	1.229905e+000
3.967760651134735e-003	1.918036e+000	1.196421e+000
3.977526276134734e-003	1.875003e+000	1.154423e+000
3.987291901134734e-003	1.823632e+000	1.104332e+000
3.997057526134734e-003	1.764412e+000	1.046653e+000
4.006823151134734e-003	1.697909e+000	9.819730e-001
4.016588776134734e-003	1.624754e+000	9.109533e-001
4.026354401134733e-003	1.545647e+000	8.343296e-001
4.036120026134733e-003	1.461339e+000	7.529082e-001
4.055651276134733e-003	1.280382e+000	5.792536e-001
4.084948151134732e-003	9.912231e-001	3.075637e-001
4.094713776134732e-003	8.937676e-001	2.195565e-001
4.104479401134732e-003	7.973244e-001	1.370007e-001
