time	V(n001)	V(n002)	V(n003)
0.000000000000000e+000	1.000000e+000	3.151591e-001	1.961017e-007
5.714285781063416e-008	1.000571e+000	3.151591e-001	1.961017e-007
1.142857156212683e-007	1.001143e+000	3.151592e-001	1.961017e-007
1.714285734319025e-007	1.001714e+000	3.151593e-001	1.961017e-007
2.285714312425366e-007	1.002286e+000	3.151595e-001	1.961017e-007
2.857142890531708e-007	1.002857e+000	3.151598e-001	1.961017e-007
3.428571468638050e-007	1.003429e+000	3.151601e-001	1.961017e-007
4.000000046744390e-007	1.004000e+000	3.151604e-001	1.961017e-007
8.000000093488779e-007	1.008000e+000	3.151649e-001	1.961017e-007
1.600000018697756e-006	1.015999e+000	3.151874e-001	1.961017e-007
3.200000037395512e-006	1.031995e+000	3.153413e-001	1.961019e-007
6.400000074791024e-006	1.063956e+000	3.172700e-001	1.961078e-007
1.280000014958205e-005	1.127651e+000	3.326238e-001	1.962663e-007
2.098618024730582e-005	1.208325e+000	3.777801e-001	1.997649e-007
2.919504740359901e-005	1.287821e+000	4.455828e-001	2.153232e-007
3.251697539930585e-005	1.319470e+000	4.768964e-001	2.377841e-007
3.471512480679701e-005	1.340220e+000	4.979497e-001	2.753254e-007
3.640061026231092e-005	1.356021e+000	5.139645e-001	3.338863e-007
3.800321440123262e-005	1.370950e+000	5.290946e-001	4.371333e-007
3.959480905666689e-005	1.385683e+000	5.440311e-001	6.204915e-007
4.117243369429022e-005	1.400190e+000	5.587453e-001	9.478719e-007
4.286181054691429e-005	1.415614e+000	5.744015e-001	1.569230e-006
4.442141473980020e-005	1.429748e+000	5.887592e-001	2.587471e-006
4.602888250206735e-005	1.444207e+000	6.034559e-001	4.421041e-006
4.756368527369998e-005	1.457905e+000	6.173895e-001	7.459920e-006
4.913667048255923e-005	1.471831e+000	6.315652e-001	1.281559e-005
5.067637467141264e-005	1.485350e+000	6.453350e-001	2.180514e-005
5.224846988332192e-005	1.499035e+000	6.592813e-001	3.747327e-005
5.380904763627025e-005	1.512497e+000	6.730069e-001	6.399309e-005
5.539819446723602e-005	1.526078e+000	6.868545e-001	1.099159e-004
5.698991717768582e-005	1.539547e+000	7.005835e-001	1.880386e-004
5.861091687751983e-005	1.553124e+000	7.144037e-001	3.227772e-004
6.024891059508036e-005	1.566695e+000	7.281799e-001	5.526576e-004
6.192716165862459e-005	1.580442e+000	7.420604e-001	9.481318e-004
6.364974682036462e-005	1.594382e+000	7.560046e-001	1.624246e-003
6.545260627611743e-005	1.608783e+000	7.701883e-001	2.787784e-003
6.737791133919353e-005	1.623944e+000	7.847689e-001	4.792869e-003
6.952893287516645e-005	1.640608e+000	8.002736e-001	8.320499e-003
7.211720973902921e-005	1.660265e+000	8.178896e-001	1.480180e-002
7.569126284649779e-005	1.686680e+000	8.410423e-001	2.774447e-002
8.105995114377382e-005	1.724700e+000	8.749984e-001	5.317923e-002
8.699738586076068e-005	1.764312e+000	9.122680e-001	8.629481e-002
9.377686954417293e-005	1.806240e+000	9.538429e-001	1.268543e-001
1.024547466390116e-004	1.854479e+000	1.003854e+000	1.782046e-001
1.122203716390116e-004	1.901058e+000	1.054450e+000	2.320354e-001
1.219859966390116e-004	1.939051e+000	1.097914e+000	2.798725e-001
1.317516216390116e-004	1.968096e+000	1.133545e+000	3.207765e-001
1.415172466390116e-004	1.987915e+000	1.161199e+000	3.545873e-001
1.512828716390116e-004	1.998320e+000	1.181035e+000	3.815449e-001
1.610484966390116e-004	1.999213e+000	1.193537e+000	4.021904e-001
1.708141216390116e-004	1.990583e+000	1.199595e+000	4.173358e-001
1.805797466390116e-004	1.972514e+000	1.200584e+000	4.280103e-001
1.903453716390116e-004	1.945178e+000	1.198248e+000	4.353308e-001
2.001109966390116e-004	1.908835e+000	1.194328e+000	4.403282e-001
2.098766216390116e-004	1.863832e+000	1.190102e+000	4.438134e-001
2.196422466390116e-004	1.810597e+000	1.186188e+000	4.463402e-001
2.294078716390116e-004	1.749637e+000	1.182723e+000	4.482492e-001
2.391734966390117e-004	1.681535e+000	1.179645e+000	4.497406e-001
2.489391216390116e-004	1.606937e+000	1.176861e+000	4.509341e-001
2.587047466390116e-004	1.526557e+000	1.174302e+000	4.519045e-001
2.684703716390117e-004	1.441158e+000	1.171918e+000	4.527015e-001
2.782359966390117e-004	1.351556e+000	1.169674e+000	4.533599e-001
2.880016216390117e-004	1.258604e+000	1.167544e+000	4.539050e-001
2.977672466390117e-004	1.163187e+000	1.165511e+000	4.543556e-001
3.075328716390117e-004	1.066215e+000	1.163559e+000	4.547264e-001
3.172984966390117e-004	9.686128e-001	1.161677e+000	4.550289e-001
3.270641216390117e-004	8.713093e-001	1.159856e+000	4.552721e-001
3.368297466390117e-004	7.752321e-001	1.158088e+000	4.554637e-001
3.465953716390117e-004	6.812968e-001	1.156367e+000	4.556097e-001
3.563609966390117e-004	5.903984e-001	1.154688e+000	4.557154e-001
3.661266216390117e-004	5.034032e-001	1.153046e+000	4.557849e-001
3.758922466390117e-004	4.211401e-001	1.151438e+000	4.558221e-001
3.856578716390118e-004	3.443931e-001	1.149862e+000	4.558301e-001
3.954234966390118e-004	2.738935e-001	1.148313e+000	4.558116e-001
4.051891216390118e-004	2.103131e-001	1.146790e+000	4.557690e-001
4.149547466390118e-004	1.542577e-001	1.145290e+000	4.557045e-001
4.247203716390118e-004	1.062615e-001	1.143812e+000	4.556197e-001
4.344859966390118e-004	6.678195e-002	1.142354e+000	4.555164e-001
4.442516216390118e-004	3.619517e-002	1.140915e+000	4.553960e-001
4.540172466390118e-004	1.479265e-002	1.139493e+000	4.552598e-001
4.637828716390118e-004	2.778329e-003	1.138087e+000	4.551090e-001
4.735484966390118e-004	2.667004e-004	1.136697e+000	4.549446e-001
4.833141216390118e-004	7.281697e-003	1.135320e+000	4.547675e-001
4.930797466390118e-004	2.375647e-002	1.133957e+000	4.545787e-001
5.028453716390118e-004	4.953403e-002	1.132606e+000	4.543788e-001
5.126109966390118e-004	8.436874e-002	1.131267e+000	4.541686e-001
5.223766216390118e-004	1.279287e-001	1.129940e+000	4.539487e-001
5.321422466390118e-004	1.797987e-001	1.128623e+000	4.537198e-001
5.419078716390118e-004	2.394845e-001	1.127316e+000	4.534823e-001
5.516734966390119e-004	3.064175e-001	1.126018e+000	4.532368e-001
5.614391216390119e-004	3.799597e-001	1.124730e+000	4.529838e-001
5.712047466390119e-004	4.594103e-001	1.123450e+000	4.527236e-001
5.809703716390119e-004	5.440124e-001	1.122178e+000	4.524567e-001
5.907359966390119e-004	6.329596e-001	1.120914e+000	4.521835e-001
6.102672466390119e-004	8.204659e-001	1.118409e+000	4.516193e-001
6.395641216390119e-004	1.112219e+000	1.114702e+000	4.507331e-001
6.688609966390120e-004	1.394409e+000	1.111051e+000	4.498053e-001
6.786266216390120e-004	1.482127e+000	1.109845e+000	4.494879e-001
6.883922466390120e-004	1.565251e+000	1.108644e+000	4.491666e-001
6.981578716390120e-004	1.642988e+000	1.107451e+000	4.488418e-001
7.079234966390120e-004	1.714598e+000	1.106292e+000	4.485136e-001
7.176891216390120e-004	1.779399e+000	1.105422e+000	4.481829e-001
7.274547466390120e-004	1.836773e+000	1.106284e+000	4.478540e-001
7.372203716390120e-004	1.886173e+000	1.112722e+000	4.475484e-001
7.469859966390120e-004	1.927128e+000	1.128606e+000	4.473484e-001
7.567516216390120e-004	1.959249e+000	1.152393e+000	4.474958e-001
7.665172466390120e-004	1.982228e+000	1.177280e+000	4.484666e-001
7.762828716390120e-004	1.995848e+000	1.197323e+000	4.507737e-001
7.860484966390121e-004	1.999979e+000	1.210482e+000	4.544884e-001
7.958141216390121e-004	1.994580e+000	1.217281e+000	4.590208e-001
8.055797466390121e-004	1.979704e+000	1.219207e+000	4.635103e-001
8.153453716390121e-004	1.955492e+000	1.217967e+000	4.673650e-001
8.251109966390121e-004	1.922176e+000	1.215106e+000	4.704186e-001
8.348766216390121e-004	1.880071e+000	1.211735e+000	4.727677e-001
8.446422466390121e-004	1.829580e+000	1.208440e+000	4.745809e-001
8.544078716390121e-004	1.771184e+000	1.205405e+000	4.760046e-001
8.641734966390121e-004	1.705439e+000	1.202630e+000	4.771427e-001
8.739391216390121e-004	1.632972e+000	1.200069e+000	4.780648e-001
8.837047466390121e-004	1.554474e+000	1.197677e+000	4.788184e-001
8.934703716390122e-004	1.470691e+000	1.195422e+000	4.794369e-001
9.032359966390122e-004	1.382424e+000	1.193280e+000	4.799445e-001
9.130016216390122e-004	1.290512e+000	1.191231e+000	4.803596e-001
9.227672466390122e-004	1.195832e+000	1.189263e+000	4.806964e-001
9.325328716390122e-004	1.099285e+000	1.187363e+000	4.809661e-001
9.422984966390122e-004	1.001793e+000	1.185524e+000	4.811776e-001
9.520641216390122e-004	9.042835e-001	1.183736e+000	4.813382e-001
9.618297466390122e-004	8.076861e-001	1.181995e+000	4.814540e-001
9.715953716390122e-004	7.129213e-001	1.180295e+000	4.815299e-001
9.813609966390121e-004	6.208921e-001	1.178633e+000	4.815702e-001
9.911266216390121e-004	5.324755e-001	1.177004e+000	4.815786e-001
1.000892246639012e-003	4.485140e-001	1.175406e+000	4.815582e-001
1.010657871639012e-003	3.698078e-001	1.173835e+000	4.815116e-001
1.020423496639012e-003	2.971067e-001	1.172289e+000	4.814412e-001
1.030189121639012e-003	2.311036e-001	1.170767e+000	4.813491e-001
1.039954746639012e-003	1.724275e-001	1.169267e+000	4.812370e-001
1.049720371639012e-003	1.216374e-001	1.167786e+000	4.811066e-001
1.059485996639012e-003	7.921741e-002	1.166324e+000	4.809593e-001
1.069251621639012e-003	4.557170e-002	1.164879e+000	4.807964e-001
1.079017246639012e-003	2.102089e-002	1.163450e+000	4.806189e-001
1.088782871639012e-003	5.798941e-003	1.162036e+000	4.804280e-001
1.098548496639012e-003	5.089677e-005	1.160637e+000	4.802246e-001
1.108314121639012e-003	3.831534e-003	1.159250e+000	4.800096e-001
1.118079746639012e-003	1.710483e-002	1.157876e+000	4.797836e-001
1.127845371639012e-003	3.974429e-002	1.156514e+000	4.795474e-001
1.137610996639012e-003	7.153419e-002	1.155163e+000	4.793016e-001
1.147376621639012e-003	1.121716e-001	1.153822e+000	4.790469e-001
1.157142246639012e-003	1.612693e-001	1.152491e+000	4.787837e-001
1.166907871639012e-003	2.183594e-001	1.151170e+000	4.785126e-001
1.176673496639012e-003	2.828978e-001	1.149858e+000	4.782339e-001
1.186439121639012e-003	3.542697e-001	1.148555e+000	4.779483e-001
1.196204746639012e-003	4.317948e-001	1.147259e+000	4.776560e-001
1.205970371639012e-003	5.147344e-001	1.145972e+000	4.773574e-001
1.215735996639012e-003	6.022982e-001	1.144692e+000	4.770528e-001
1.235267246639012e-003	7.879246e-001	1.142153e+000	4.764271e-001
1.264564121639012e-003	1.079188e+000	1.138394e+000	4.754511e-001
1.293860996639012e-003	1.363702e+000	1.134688e+000	4.744361e-001
1.303626621639012e-003	1.452793e+000	1.133464e+000	4.740900e-001
1.313392246639012e-003	1.537569e+000	1.132244e+000	4.737404e-001
1.323157871639012e-003	1.617223e+000	1.131030e+000	4.733874e-001
1.332923496639012e-003	1.690995e+000	1.129826e+000	4.730312e-001
1.342689121639012e-003	1.758182e+000	1.128683e+000	4.726720e-001
1.352454746639012e-003	1.818145e+000	1.127989e+000	4.723110e-001
1.362220371639013e-003	1.870311e+000	1.129446e+000	4.719537e-001
1.371985996639013e-003	1.914184e+000	1.136606e+000	4.716225e-001
1.381751621639013e-003	1.949345e+000	1.151971e+000	4.713898e-001
1.391517246639013e-003	1.975460e+000	1.172980e+000	4.714305e-001
1.401282871639013e-003	1.992280e+000	1.193583e+000	4.720265e-001
1.411048496639013e-003	1.999644e+000	1.209301e+000	4.734183e-001
1.420814121639013e-003	1.997482e+000	1.218910e+000	4.755734e-001
1.430579746639013e-003	1.985816e+000	1.223162e+000	4.781407e-001
1.440345371639013e-003	1.964755e+000	1.223580e+000	4.806770e-001
1.450110996639013e-003	1.934501e+000	1.221786e+000	4.828933e-001
1.459876621639013e-003	1.895341e+000	1.219061e+000	4.847075e-001
1.469642246639013e-003	1.847650e+000	1.216156e+000	4.861601e-001
1.479407871639013e-003	1.791882e+000	1.213374e+000	4.873245e-001
1.489173496639013e-003	1.728567e+000	1.210779e+000	4.882659e-001
1.498939121639013e-003	1.658310e+000	1.208355e+000	4.890328e-001
1.508704746639013e-003	1.581780e+000	1.206071e+000	4.896601e-001
1.518470371639013e-003	1.499706e+000	1.203902e+000	4.901734e-001
1.528235996639013e-003	1.412870e+000	1.201831e+000	4.905916e-001
1.538001621639013e-003	1.322100e+000	1.199841e+000	4.909297e-001
1.547767246639013e-003	1.228261e+000	1.197921e+000	4.911990e-001
1.557532871639013e-003	1.132246e+000	1.196062e+000	4.914088e-001
1.567298496639013e-003	1.034971e+000	1.194257e+000	4.915668e-001
1.577064121639013e-003	9.373631e-001	1.192499e+000	4.916791e-001
1.586829746639013e-003	8.403519e-001	1.190784e+000	4.917508e-001
1.596595371639013e-003	7.448620e-001	1.189106e+000	4.917864e-001
1.606360996639013e-003	6.518033e-001	1.187462e+000	4.917895e-001
1.616126621639013e-003	5.620627e-001	1.185849e+000	4.917634e-001
1.625892246639013e-003	4.764953e-001	1.184264e+000	4.917107e-001
1.635657871639013e-003	3.959164e-001	1.182705e+000	4.916338e-001
1.645423496639013e-003	3.210939e-001	1.181170e+000	4.915350e-001
1.655189121639013e-003	2.527409e-001	1.179656e+000	4.914159e-001
1.664954746639013e-003	1.915086e-001	1.178163e+000	4.912784e-001
1.674720371639013e-003	1.379805e-001	1.176688e+000	4.911236e-001
1.684485996639013e-003	9.266680e-002	1.175231e+000	4.909531e-001
1.694251621639013e-003	5.599920e-002	1.173789e+000	4.907679e-001
1.704017246639013e-003	2.832715e-002	1.172363e+000	4.905692e-001
1.713782871639013e-003	9.914330e-003	1.170952e+000	4.903578e-001
1.723548496639013e-003	9.362006e-004	1.169553e+000	4.901346e-001
1.733314121639013e-003	1.478316e-003	1.168167e+000	4.899004e-001
1.743079746639013e-003	1.153551e-002	1.166794e+000	4.896558e-001
1.752845371639013e-003	3.101195e-002	1.165431e+000	4.894016e-001
1.762610996639013e-003	5.972203e-002	1.164079e+000	4.891384e-001
1.772376621639013e-003	9.739219e-002	1.162737e+000	4.888667e-001
1.782142246639013e-003	1.436634e-001	1.161404e+000	4.885870e-001
1.791907871639013e-003	1.980949e-001	1.160081e+000	4.882997e-001
1.801673496639013e-003	2.601678e-001	1.158767e+000	4.880053e-001
1.811439121639013e-003	3.292907e-001	1.157460e+000	4.877042e-001
1.821204746639013e-003	4.048049e-001	1.156162e+000	4.873968e-001
1.830970371639013e-003	4.859908e-001	1.154871e+000	4.870833e-001
1.840735996639013e-003	5.720748e-001	1.153588e+000	4.867643e-001
1.860267246639013e-003	7.556169e-001	1.151041e+000	4.861102e-001
1.889564121639013e-003	1.046069e+000	1.147268e+000	4.850935e-001
1.918860996639013e-003	1.332595e+000	1.143547e+000	4.840394e-001
1.928626621639013e-003	1.422961e+000	1.142317e+000	4.836807e-001
1.938392246639013e-003	1.509296e+000	1.141092e+000	4.833186e-001
1.948157871639013e-003	1.590778e+000	1.139872e+000	4.829532e-001
1.957923496639013e-003	1.666630e+000	1.138658e+000	4.825847e-001
1.967689121639013e-003	1.736130e+000	1.137468e+000	4.822134e-001
1.977454746639012e-003	1.798616e+000	1.136450e+000	4.818396e-001
1.987220371639012e-003	1.853491e+000	1.136452e+000	4.814657e-001
1.996985996639012e-003	1.900233e+000	1.140018e+000	4.811020e-001
2.006751621639012e-003	1.938396e+000	1.150493e+000	4.807841e-001
2.016517246639012e-003	1.967618e+000	1.168073e+000	4.806079e-001
2.026282871639011e-003	1.987619e+000	1.188211e+000	4.807577e-001
2.036048496639011e-003	1.998209e+000	1.205493e+000	4.814533e-001
2.045814121639011e-003	1.999286e+000	1.217259e+000	4.827889e-001
2.055579746639011e-003	1.990841e+000	1.223467e+000	4.846116e-001
2.065345371639011e-003	1.972955e+000	1.225330e+000	4.865988e-001
2.075110996639010e-003	1.945796e+000	1.224438e+000	4.884586e-001
2.084876621639010e-003	1.909626e+000	1.222198e+000	4.900472e-001
2.094642246639010e-003	1.864787e+000	1.219534e+000	4.913486e-001
2.104407871639010e-003	1.811708e+000	1.216881e+000	4.924033e-001
2.114173496639009e-003	1.750893e+000	1.214368e+000	4.932600e-001
2.123939121639009e-003	1.682924e+000	1.212004e+000	4.939590e-001
2.133704746639009e-003	1.608446e+000	1.209767e+000	4.945302e-001
2.143470371639009e-003	1.528171e+000	1.207638e+000	4.949962e-001
2.153235996639009e-003	1.442862e+000	1.205598e+000	4.953741e-001
2.163001621639008e-003	1.353334e+000	1.203635e+000	4.956769e-001
2.172767246639008e-003	1.260438e+000	1.201738e+000	4.959152e-001
2.182532871639008e-003	1.165061e+000	1.199899e+000	4.960975e-001
2.192298496639008e-003	1.068111e+000	1.198110e+000	4.962308e-001
2.202064121639008e-003	9.705116e-001	1.196366e+000	4.963206e-001
2.211829746639007e-003	8.731934e-001	1.194663e+000	4.963719e-001
2.221595371639007e-003	7.770836e-001	1.192996e+000	4.963886e-001
2.231360996639007e-003	6.830980e-001	1.191361e+000	4.963744e-001
2.241126621639007e-003	5.921322e-001	1.189756e+000	4.963321e-001
2.250892246639007e-003	5.050529e-001	1.188178e+000	4.962643e-001
2.260657871639006e-003	4.226902e-001	1.186625e+000	4.961733e-001
2.270423496639006e-003	3.458287e-001	1.185094e+000	4.960611e-001
2.280189121639006e-003	2.752010e-001	1.183585e+000	4.959295e-001
2.289954746639006e-003	2.114799e-001	1.182095e+000	4.957800e-001
2.299720371639006e-003	1.552729e-001	1.180623e+000	4.956139e-001
2.309485996639005e-003	1.071153e-001	1.179169e+000	4.954325e-001
2.319251621639005e-003	6.746621e-002	1.177730e+000	4.952369e-001
2.329017246639005e-003	3.670338e-002	1.176305e+000	4.950282e-001
2.338782871639005e-003	1.511997e-002	1.174895e+000	4.948072e-001
2.348548496639004e-003	2.921637e-003	1.173498e+000	4.945748e-001
2.358314121639004e-003	2.246335e-004	1.172113e+000	4.943316e-001
2.368079746639004e-003	7.054656e-003	1.170739e+000	4.940785e-001
2.377845371639004e-003	2.334662e-002	1.169377e+000	4.938159e-001
2.387610996639004e-003	4.894527e-002	1.168025e+000	4.935446e-001
2.397376621639003e-003	8.360669e-002	1.166682e+000	4.932649e-001
2.407142246639003e-003	1.270006e-001	1.165350e+000	4.929775e-001
2.416907871639003e-003	1.787134e-001	1.164026e+000	4.926828e-001
2.426673496639003e-003	2.382524e-001	1.162710e+000	4.923810e-001
2.436439121639003e-003	3.050503e-001	1.161403e+000	4.920728e-001
2.446204746639002e-003	3.784704e-001	1.160104e+000	4.917584e-001
2.455970371639002e-003	4.578132e-001	1.158812e+000	4.914381e-001
2.465735996639002e-003	5.423225e-001	1.157526e+000	4.911123e-001
2.475501621639002e-003	6.311932e-001	1.156248e+000	4.907812e-001
2.495032871639001e-003	8.185974e-001	1.153712e+000	4.901044e-001
2.524329746639001e-003	1.110331e+000	1.149951e+000	4.890561e-001
2.553626621639000e-003	1.392663e+000	1.146239e+000	4.879731e-001
2.563392246639000e-003	1.480462e+000	1.145012e+000	4.876052e-001
2.573157871639000e-003	1.563683e+000	1.143790e+000	4.872342e-001
2.582923496638999e-003	1.641532e+000	1.142572e+000	4.868601e-001
2.592689121638999e-003	1.713268e+000	1.141366e+000	4.864832e-001
2.602454746638999e-003	1.778207e+000	1.140238e+000	4.861037e-001
2.612220371638999e-003	1.835731e+000	1.139627e+000	4.857227e-001
2.621985996638999e-003	1.885291e+000	1.141264e+000	4.853458e-001
2.631751621638998e-003	1.926414e+000	1.148406e+000	4.849937e-001
2.641517246638998e-003	1.958710e+000	1.162961e+000	4.847271e-001
2.651282871638998e-003	1.981870e+000	1.182195e+000	4.846796e-001
2.661048496638998e-003	1.995674e+000	1.200593e+000	4.850459e-001
2.670814121638998e-003	1.999989e+000	1.214301e+000	4.859711e-001
2.680528155122929e-003	1.994829e+000	1.222353e+000	4.874048e-001
2.690293780122928e-003	1.980186e+000	1.225664e+000	4.891227e-001
2.700059405122928e-003	1.956202e+000	1.225686e+000	4.908316e-001
2.709825030122928e-003	1.923107e+000	1.223911e+000	4.923471e-001
2.719590655122928e-003	1.881215e+000	1.221437e+000	4.936124e-001
2.729356280122928e-003	1.830927e+000	1.218847e+000	4.946457e-001
2.739121905122927e-003	1.772720e+000	1.216356e+000	4.954868e-001
2.748887530122927e-003	1.707150e+000	1.214001e+000	4.961732e-001
2.758653155122927e-003	1.634841e+000	1.211772e+000	4.967338e-001
2.768418780122927e-003	1.556482e+000	1.209647e+000	4.971907e-001
2.778184405122927e-003	1.472821e+000	1.207612e+000	4.975604e-001
2.787950030122926e-003	1.384655e+000	1.205652e+000	4.978560e-001
2.797715655122926e-003	1.292822e+000	1.203757e+000	4.980878e-001
2.807481280122926e-003	1.198200e+000	1.201920e+000	4.982642e-001
2.817246905122926e-003	1.101689e+000	1.200132e+000	4.983919e-001
